 ****** HSPICE -- L-2016.06-SP2-2 linux64 (Jan 24 2017) ******                  
  Copyright (c) 1986 - 2017 by Synopsys, Inc. All Rights Reserved.              
  This software and the associated documentation are proprietary
  to Synopsys, Inc. This software may only be used in accordance
  with the terms and conditions of a written license agreement with
  Synopsys, Inc. All other use, reproduction, or distribution of
  this software is strictly prohibited.
  Input File: PUF.sp                                                            
  Command line options: /afs/umbc.edu/software/synopsys/software/hspice/hspice/linux64/hspice PUF.sp -o out.lis
 lic:  
 lic: FLEXlm: v11.2.1 
 lic: USER:   brianw5              HOSTNAME: cadence2.cs.umbc.edu 
 lic: HOSTID: 005056950d98         PID:      24580 
 lic: Using FLEXlm license file: 
 lic: 27020@license5.umbc.edu 
 lic: Checkout 1 hspice 
 lic: License/Maintenance for hspice will expire on 25-mar-2018/2016.06 
 lic: 5(in_use)/50(total) FLOATING license(s) on SERVER 27020@license5.umbc.edu 
 lic:   
  **warning** (PUF.sp:9) runlvl smaller than 5, reset to 5 when accurate turned on
  **info** Monte Carlo simulation is detected, increase number of measure digits to 7 for Monte Carlo post processing.

 **warning**  runlvl smaller than 5, reset to 5 when accurate turned on
  **info** (PUF.sp:25) DC voltage reset to initial transient source value in source 0:vclk. new dc=0.0000D+00
  **warning** (pmos_vtl:m_mp2 (/afs/umbc.edu/users/b/r/brianw5/home/CMPE691/hw8/all_gates:219)) Warning:  Acde = 0.300892 may be too small in BSIM4 model with w=3.15e-07 l=5e-08.
*** info *** index=1 is a nominal sample in Monte Carlo.
*** info *** The MCG Random Number Generator and .Option Use_Agauss_Format = Yes are set as defaults starting with HSPICE L-2016.06 to address the needs of advanced technology nodes with large samples and/or large circuits, particularly for distributed processing.
*** Should you want backward compatibility, please use the following options:
For traditional Gaussian style variations, use .Option Random_Generator = 3LC;
For Variation Block style variations, use .Option Random_Generator = MOA.
  
      

MONTE CARLO DEFINITIONS


Option sampling_method was set, variation block and agauss format variation are in effect.

Random number generator is MCG            , and seed =      1, stream =   1
 **info** set option symb=1 internally to help for convergence.
 *****************************************************************
 ******  option summary
 ******
 runlvl  = 5         bypass  = 2.0000    
  Opening plot unit= 15
 file=out.pa0


   *** monte carlo  index =            1 ***

 ******
 **puf spice file**

 ****** transient analysis tnom=  25.000 temp=  80.000 ******
x

 time         voltage    voltage    voltage    voltage   
             in         out0       out1       out2       
  5.0000e-09  0.000e+00  1.475e-04  1.475e-04  1.475e-04 
  1.0000e-08  0.000e+00  1.474e-04  1.474e-04  1.474e-04 
  1.5000e-08  0.000e+00  1.474e-04  1.474e-04  1.474e-04 
  2.0000e-08  0.000e+00  1.474e-04  1.474e-04  1.474e-04 
  2.5000e-08  0.000e+00  1.474e-04  1.474e-04  1.474e-04 
  3.0000e-08  0.000e+00  1.475e-04  1.475e-04  1.475e-04 
  3.5000e-08  0.000e+00  1.475e-04  1.475e-04  1.475e-04 
  4.0000e-08  0.000e+00  1.474e-04  1.474e-04  1.474e-04 
  4.5000e-08  0.000e+00  1.474e-04  1.474e-04  1.474e-04 
  5.0000e-08  0.000e+00  1.473e-04  1.473e-04  1.473e-04 
  5.5000e-08  0.000e+00  1.474e-04  1.474e-04  1.474e-04 
  6.0000e-08  0.000e+00  1.474e-04  1.474e-04  1.474e-04 
  6.5000e-08  0.000e+00  1.474e-04  1.474e-04  1.474e-04 
  7.0000e-08  0.000e+00  1.474e-04  1.474e-04  1.474e-04 
  7.5000e-08  0.000e+00  1.474e-04  1.474e-04  1.474e-04 
  8.0000e-08  0.000e+00  1.474e-04  1.474e-04  1.474e-04 
y
x

 time         voltage    voltage    voltage    voltage   
             out3       out4       out5       out6       
  5.0000e-09  1.475e-04  1.475e-04  1.475e-04  1.475e-04 
  1.0000e-08  1.474e-04  1.474e-04  1.474e-04  1.474e-04 
  1.5000e-08  1.474e-04  1.474e-04  1.474e-04  1.474e-04 
  2.0000e-08  1.474e-04  1.474e-04  1.474e-04  1.474e-04 
  2.5000e-08  1.474e-04  1.474e-04  1.474e-04  1.474e-04 
  3.0000e-08  1.475e-04  1.475e-04  1.475e-04  1.475e-04 
  3.5000e-08  1.475e-04  1.475e-04  1.475e-04  1.475e-04 
  4.0000e-08  1.474e-04  1.474e-04  1.474e-04  1.474e-04 
  4.5000e-08  1.474e-04  1.474e-04  1.474e-04  1.474e-04 
  5.0000e-08  1.473e-04  1.473e-04  1.473e-04  1.473e-04 
  5.5000e-08  1.474e-04  1.474e-04  1.474e-04  1.474e-04 
  6.0000e-08  1.474e-04  1.474e-04  1.474e-04  1.474e-04 
  6.5000e-08  1.474e-04  1.474e-04  1.474e-04  1.474e-04 
  7.0000e-08  1.474e-04  1.474e-04  1.474e-04  1.474e-04 
  7.5000e-08  1.474e-04  1.474e-04  1.474e-04  1.474e-04 
  8.0000e-08  1.474e-04  1.474e-04  1.474e-04  1.474e-04 
y
x

 time         voltage   
             out7       
  5.0000e-09  1.475e-04 
  1.0000e-08  1.474e-04 
  1.5000e-08  1.474e-04 
  2.0000e-08  1.474e-04 
  2.5000e-08  1.474e-04 
  3.0000e-08  1.475e-04 
  3.5000e-08  1.475e-04 
  4.0000e-08  1.474e-04 
  4.5000e-08  1.474e-04 
  5.0000e-08  1.473e-04 
  5.5000e-08  1.474e-04 
  6.0000e-08  1.474e-04 
  6.5000e-08  1.474e-04 
  7.0000e-08  1.474e-04 
  7.5000e-08  1.474e-04 
  8.0000e-08  1.474e-04 
y

          ***** job concluded

   *** monte carlo  index =            2 ***

x

 time         voltage    voltage    voltage    voltage   
             in         out0       out1       out2       
  5.0000e-09  0.000e+00  1.100e+00  1.100e+00  1.100e+00 
  1.0000e-08  0.000e+00  1.186e-04  7.131e-04  8.863e-02 
  1.5000e-08  0.000e+00  1.187e-04  7.130e-04  8.863e-02 
  2.0000e-08  0.000e+00  1.187e-04  1.100e+00  8.863e-02 
  2.5000e-08  0.000e+00  1.187e-04  7.131e-04  8.863e-02 
  3.0000e-08  0.000e+00  1.100e+00  7.130e-04  8.863e-02 
  3.5000e-08  0.000e+00  1.186e-04  1.100e+00  8.863e-02 
  4.0000e-08  0.000e+00  1.100e+00  7.130e-04  8.863e-02 
  4.5000e-08  0.000e+00  1.100e+00  7.130e-04  8.863e-02 
  5.0000e-08  0.000e+00  1.186e-04  7.130e-04  8.863e-02 
  5.5000e-08  0.000e+00  1.100e+00  7.130e-04  8.863e-02 
  6.0000e-08  0.000e+00  1.186e-04  1.100e+00  8.863e-02 
  6.5000e-08  0.000e+00  1.187e-04  7.131e-04  8.863e-02 
  7.0000e-08  0.000e+00  1.187e-04  7.130e-04  8.863e-02 
  7.5000e-08  0.000e+00  1.188e-04  7.131e-04  8.863e-02 
  8.0000e-08  0.000e+00  1.187e-04  7.129e-04  8.863e-02 
y
x

 time         voltage    voltage    voltage    voltage   
             out3       out4       out5       out6       
  5.0000e-09  1.100e+00  1.100e+00  1.100e+00  1.499e-04 
  1.0000e-08  8.392e-05  7.966e-05  1.100e+00  1.499e-04 
  1.5000e-08  8.390e-05  7.971e-05  4.416e-03  1.500e-04 
  2.0000e-08  8.396e-05  1.100e+00  4.418e-03  1.499e-04 
  2.5000e-08  1.100e+00  7.965e-05  1.100e+00  1.500e-04 
  3.0000e-08  8.392e-05  7.963e-05  4.416e-03  1.499e-04 
  3.5000e-08  1.100e+00  7.965e-05  1.100e+00  1.500e-04 
  4.0000e-08  8.401e-05  1.100e+00  4.417e-03  1.500e-04 
  4.5000e-08  8.391e-05  7.965e-05  4.418e-03  1.500e-04 
  5.0000e-08  1.100e+00  7.961e-05  4.416e-03  1.500e-04 
  5.5000e-08  1.100e+00  7.971e-05  4.418e-03  1.499e-04 
  6.0000e-08  8.397e-05  7.958e-05  4.416e-03  1.499e-04 
  6.5000e-08  8.407e-05  7.955e-05  4.417e-03  1.500e-04 
  7.0000e-08  1.100e+00  7.963e-05  1.100e+00  1.499e-04 
  7.5000e-08  8.390e-05  7.953e-05  4.416e-03  1.501e-04 
  8.0000e-08  8.387e-05  7.988e-05  4.416e-03  1.499e-04 
y
x

 time         voltage   
             out7       
  5.0000e-09  9.366e-05 
  1.0000e-08  9.360e-05 
  1.5000e-08  9.360e-05 
  2.0000e-08  9.365e-05 
  2.5000e-08  9.369e-05 
  3.0000e-08  1.100e+00 
  3.5000e-08  9.370e-05 
  4.0000e-08  9.358e-05 
  4.5000e-08  9.368e-05 
  5.0000e-08  1.100e+00 
  5.5000e-08  9.359e-05 
  6.0000e-08  9.356e-05 
  6.5000e-08  9.366e-05 
  7.0000e-08  9.358e-05 
  7.5000e-08  1.100e+00 
  8.0000e-08  1.100e+00 
y

          ***** job concluded

   *** monte carlo  index =            3 ***

x

 time         voltage    voltage    voltage    voltage   
             in         out0       out1       out2       
  5.0000e-09  0.000e+00  1.219e-05  1.100e+00  2.449e-01 
  1.0000e-08  0.000e+00  1.213e-05  1.100e+00  2.449e-01 
  1.5000e-08  0.000e+00  1.100e+00  8.257e-06  2.449e-01 
  2.0000e-08  0.000e+00  1.221e-05  8.216e-06  2.449e-01 
  2.5000e-08  0.000e+00  1.207e-05  8.257e-06  2.449e-01 
  3.0000e-08  0.000e+00  1.214e-05  1.100e+00  2.449e-01 
  3.5000e-08  0.000e+00  1.100e+00  8.266e-06  2.449e-01 
  4.0000e-08  0.000e+00  1.214e-05  8.346e-06  2.449e-01 
  4.5000e-08  0.000e+00  1.100e+00  8.255e-06  2.449e-01 
  5.0000e-08  0.000e+00  1.215e-05  1.100e+00  2.449e-01 
  5.5000e-08  0.000e+00  1.100e+00  8.085e-06  2.449e-01 
  6.0000e-08  0.000e+00  1.100e+00  8.292e-06  1.100e+00 
  6.5000e-08  0.000e+00  1.100e+00  1.100e+00  2.449e-01 
  7.0000e-08  0.000e+00  1.217e-05  8.236e-06  2.449e-01 
  7.5000e-08  0.000e+00  1.213e-05  8.205e-06  2.449e-01 
  8.0000e-08  0.000e+00  1.208e-05  8.262e-06  2.449e-01 
y
x

 time         voltage    voltage    voltage    voltage   
             out3       out4       out5       out6       
  5.0000e-09  1.100e+00  1.100e+00  6.426e-05  7.889e-05 
  1.0000e-08  1.100e+00  1.100e+00  6.426e-05  7.900e-05 
  1.5000e-08  8.668e-06  1.100e+00  6.423e-05  7.895e-05 
  2.0000e-08  8.645e-06  1.763e-05  1.100e+00  7.889e-05 
  2.5000e-08  1.100e+00  1.100e+00  6.421e-05  7.890e-05 
  3.0000e-08  8.700e-06  1.766e-05  6.423e-05  1.100e+00 
  3.5000e-08  8.486e-06  1.757e-05  6.431e-05  7.882e-05 
  4.0000e-08  1.100e+00  1.100e+00  6.430e-05  7.896e-05 
  4.5000e-08  8.630e-06  1.100e+00  6.418e-05  7.892e-05 
  5.0000e-08  1.100e+00  1.770e-05  6.421e-05  7.891e-05 
  5.5000e-08  1.100e+00  1.759e-05  6.428e-05  7.886e-05 
  6.0000e-08  8.640e-06  1.100e+00  6.416e-05  7.893e-05 
  6.5000e-08  1.100e+00  1.768e-05  1.100e+00  7.892e-05 
  7.0000e-08  1.100e+00  1.100e+00  1.100e+00  7.896e-05 
  7.5000e-08  8.631e-06  1.764e-05  6.419e-05  7.891e-05 
  8.0000e-08  8.609e-06  1.764e-05  6.424e-05  7.887e-05 
y
x

 time         voltage   
             out7       
  5.0000e-09  7.048e-04 
  1.0000e-08  7.046e-04 
  1.5000e-08  1.100e+00 
  2.0000e-08  1.100e+00 
  2.5000e-08  1.100e+00 
  3.0000e-08  7.048e-04 
  3.5000e-08  1.100e+00 
  4.0000e-08  7.047e-04 
  4.5000e-08  1.100e+00 
  5.0000e-08  7.047e-04 
  5.5000e-08  1.100e+00 
  6.0000e-08  1.100e+00 
  6.5000e-08  7.047e-04 
  7.0000e-08  1.100e+00 
  7.5000e-08  7.047e-04 
  8.0000e-08  7.047e-04 
y

          ***** job concluded

   *** monte carlo  index =            4 ***

x

 time         voltage    voltage    voltage    voltage   
             in         out0       out1       out2       
  5.0000e-09  0.000e+00  7.201e-05  1.100e+00  1.065e-04 
  1.0000e-08  0.000e+00  1.100e+00  2.669e-04  1.100e+00 
  1.5000e-08  0.000e+00  7.188e-05  2.669e-04  1.064e-04 
  2.0000e-08  0.000e+00  7.197e-05  2.669e-04  1.064e-04 
  2.5000e-08  0.000e+00  7.181e-05  2.669e-04  1.100e+00 
  3.0000e-08  0.000e+00  7.197e-05  2.669e-04  1.064e-04 
  3.5000e-08  0.000e+00  1.100e+00  2.668e-04  1.064e-04 
  4.0000e-08  0.000e+00  7.191e-05  2.669e-04  1.065e-04 
  4.5000e-08  0.000e+00  7.194e-05  2.669e-04  1.100e+00 
  5.0000e-08  0.000e+00  7.194e-05  2.670e-04  1.064e-04 
  5.5000e-08  0.000e+00  1.100e+00  2.669e-04  1.064e-04 
  6.0000e-08  0.000e+00  1.100e+00  2.669e-04  1.065e-04 
  6.5000e-08  0.000e+00  7.193e-05  2.669e-04  1.064e-04 
  7.0000e-08  0.000e+00  7.201e-05  2.669e-04  1.063e-04 
  7.5000e-08  0.000e+00  7.192e-05  2.670e-04  1.065e-04 
  8.0000e-08  0.000e+00  7.190e-05  2.669e-04  1.065e-04 
y
x

 time         voltage    voltage    voltage    voltage   
             out3       out4       out5       out6       
  5.0000e-09  1.099e+00  8.931e-05  1.721e-04  1.170e-05 
  1.0000e-08  1.099e+00  8.928e-05  1.721e-04  1.178e-05 
  1.5000e-08  1.099e+00  1.100e+00  1.721e-04  1.175e-05 
  2.0000e-08  1.099e+00  1.100e+00  1.721e-04  1.173e-05 
  2.5000e-08  1.099e+00  8.936e-05  1.100e+00  1.181e-05 
  3.0000e-08  1.099e+00  8.933e-05  1.721e-04  1.165e-05 
  3.5000e-08  1.099e+00  8.940e-05  1.720e-04  1.090e+00 
  4.0000e-08  1.099e+00  1.100e+00  1.100e+00  1.176e-05 
  4.5000e-08  1.099e+00  8.930e-05  1.722e-04  1.181e-05 
  5.0000e-08  1.099e+00  8.932e-05  1.100e+00  1.090e+00 
  5.5000e-08  1.099e+00  8.934e-05  1.721e-04  1.090e+00 
  6.0000e-08  1.099e+00  1.100e+00  1.722e-04  1.182e-05 
  6.5000e-08  1.099e+00  1.100e+00  1.100e+00  1.177e-05 
  7.0000e-08  1.099e+00  8.927e-05  1.721e-04  1.090e+00 
  7.5000e-08  1.099e+00  1.100e+00  1.722e-04  1.172e-05 
  8.0000e-08  1.099e+00  1.100e+00  1.721e-04  1.184e-05 
y
x

 time         voltage   
             out7       
  5.0000e-09  1.100e+00 
  1.0000e-08  1.242e-04 
  1.5000e-08  1.241e-04 
  2.0000e-08  1.242e-04 
  2.5000e-08  1.242e-04 
  3.0000e-08  1.242e-04 
  3.5000e-08  1.100e+00 
  4.0000e-08  1.240e-04 
  4.5000e-08  1.242e-04 
  5.0000e-08  1.242e-04 
  5.5000e-08  1.242e-04 
  6.0000e-08  1.242e-04 
  6.5000e-08  1.241e-04 
  7.0000e-08  1.242e-04 
  7.5000e-08  1.242e-04 
  8.0000e-08  1.242e-04 
y

          ***** job concluded

   *** monte carlo  index =            5 ***

x

 time         voltage    voltage    voltage    voltage   
             in         out0       out1       out2       
  5.0000e-09  0.000e+00  4.973e-03  1.101e-04  7.096e-05 
  1.0000e-08  0.000e+00  4.973e-03  1.101e-04  1.100e+00 
  1.5000e-08  0.000e+00  4.973e-03  1.100e+00  7.096e-05 
  2.0000e-08  0.000e+00  4.973e-03  1.100e+00  7.096e-05 
  2.5000e-08  0.000e+00  1.099e+00  1.101e-04  1.100e+00 
  3.0000e-08  0.000e+00  4.973e-03  1.101e-04  7.096e-05 
  3.5000e-08  0.000e+00  1.099e+00  1.100e+00  1.100e+00 
  4.0000e-08  0.000e+00  4.973e-03  1.101e-04  7.095e-05 
  4.5000e-08  0.000e+00  4.973e-03  1.101e-04  1.100e+00 
  5.0000e-08  0.000e+00  4.973e-03  1.101e-04  7.096e-05 
  5.5000e-08  0.000e+00  4.973e-03  1.101e-04  1.100e+00 
  6.0000e-08  0.000e+00  4.973e-03  1.100e+00  7.094e-05 
  6.5000e-08  0.000e+00  4.973e-03  1.100e+00  1.100e+00 
  7.0000e-08  0.000e+00  4.973e-03  1.102e-04  7.094e-05 
  7.5000e-08  0.000e+00  4.973e-03  1.101e-04  7.096e-05 
  8.0000e-08  0.000e+00  4.973e-03  1.101e-04  7.097e-05 
y
x

 time         voltage    voltage    voltage    voltage   
             out3       out4       out5       out6       
  5.0000e-09  1.378e-04  3.463e-03  1.100e+00  1.100e+00 
  1.0000e-08  1.378e-04  1.100e+00  1.100e+00  1.603e-04 
  1.5000e-08  1.100e+00  3.463e-03  1.100e+00  1.100e+00 
  2.0000e-08  1.100e+00  1.100e+00  1.100e+00  1.603e-04 
  2.5000e-08  1.378e-04  3.463e-03  1.100e+00  1.603e-04 
  3.0000e-08  1.377e-04  3.463e-03  1.083e-03  1.100e+00 
  3.5000e-08  1.378e-04  3.463e-03  1.083e-03  1.603e-04 
  4.0000e-08  1.100e+00  3.463e-03  1.083e-03  1.100e+00 
  4.5000e-08  1.378e-04  3.463e-03  1.100e+00  1.100e+00 
  5.0000e-08  1.100e+00  1.100e+00  1.100e+00  1.603e-04 
  5.5000e-08  1.378e-04  3.463e-03  1.083e-03  1.603e-04 
  6.0000e-08  1.100e+00  1.100e+00  1.083e-03  1.100e+00 
  6.5000e-08  1.378e-04  3.463e-03  1.083e-03  1.603e-04 
  7.0000e-08  1.100e+00  3.463e-03  1.083e-03  1.603e-04 
  7.5000e-08  1.378e-04  3.463e-03  1.100e+00  1.100e+00 
  8.0000e-08  1.378e-04  3.463e-03  1.100e+00  1.100e+00 
y
x

 time         voltage   
             out7       
  5.0000e-09  1.027e-04 
  1.0000e-08  1.099e+00 
  1.5000e-08  1.027e-04 
  2.0000e-08  1.099e+00 
  2.5000e-08  1.099e+00 
  3.0000e-08  1.027e-04 
  3.5000e-08  1.027e-04 
  4.0000e-08  1.027e-04 
  4.5000e-08  1.099e+00 
  5.0000e-08  1.027e-04 
  5.5000e-08  1.027e-04 
  6.0000e-08  1.027e-04 
  6.5000e-08  1.099e+00 
  7.0000e-08  1.027e-04 
  7.5000e-08  1.099e+00 
  8.0000e-08  1.099e+00 
y

          ***** job concluded

   *** monte carlo  index =            6 ***

x

 time         voltage    voltage    voltage    voltage   
             in         out0       out1       out2       
  5.0000e-09  0.000e+00  1.100e+00  1.598e-04  1.100e+00 
  1.0000e-08  0.000e+00  1.100e+00  1.598e-04  5.549e-04 
  1.5000e-08  0.000e+00  1.833e-05  1.597e-04  5.549e-04 
  2.0000e-08  0.000e+00  1.825e-05  1.598e-04  5.549e-04 
  2.5000e-08  0.000e+00  1.100e+00  1.598e-04  5.550e-04 
  3.0000e-08  0.000e+00  1.821e-05  1.597e-04  1.100e+00 
  3.5000e-08  0.000e+00  1.827e-05  1.598e-04  5.549e-04 
  4.0000e-08  0.000e+00  1.831e-05  1.598e-04  1.100e+00 
  4.5000e-08  0.000e+00  1.832e-05  1.598e-04  5.550e-04 
  5.0000e-08  0.000e+00  1.100e+00  1.598e-04  1.100e+00 
  5.5000e-08  0.000e+00  1.836e-05  1.597e-04  1.100e+00 
  6.0000e-08  0.000e+00  1.826e-05  1.598e-04  5.550e-04 
  6.5000e-08  0.000e+00  1.831e-05  1.598e-04  5.549e-04 
  7.0000e-08  0.000e+00  1.821e-05  1.598e-04  1.100e+00 
  7.5000e-08  0.000e+00  1.100e+00  1.597e-04  5.549e-04 
  8.0000e-08  0.000e+00  1.100e+00  1.598e-04  5.549e-04 
y
x

 time         voltage    voltage    voltage    voltage   
             out3       out4       out5       out6       
  5.0000e-09  4.147e-03  4.351e-05  5.183e-04  1.655e-04 
  1.0000e-08  4.147e-03  4.347e-05  5.183e-04  1.100e+00 
  1.5000e-08  4.147e-03  1.100e+00  5.184e-04  1.100e+00 
  2.0000e-08  4.147e-03  4.353e-05  5.183e-04  1.100e+00 
  2.5000e-08  4.147e-03  4.350e-05  1.100e+00  1.655e-04 
  3.0000e-08  4.147e-03  4.350e-05  5.183e-04  1.100e+00 
  3.5000e-08  4.147e-03  4.352e-05  1.100e+00  1.655e-04 
  4.0000e-08  4.147e-03  4.348e-05  5.184e-04  1.653e-04 
  4.5000e-08  4.147e-03  4.351e-05  5.182e-04  1.100e+00 
  5.0000e-08  4.147e-03  4.349e-05  5.183e-04  1.655e-04 
  5.5000e-08  4.147e-03  1.100e+00  1.100e+00  1.655e-04 
  6.0000e-08  4.147e-03  4.353e-05  5.184e-04  1.100e+00 
  6.5000e-08  1.100e+00  1.100e+00  1.100e+00  1.655e-04 
  7.0000e-08  4.147e-03  4.351e-05  5.183e-04  1.655e-04 
  7.5000e-08  4.147e-03  4.336e-05  1.100e+00  1.100e+00 
  8.0000e-08  4.147e-03  4.363e-05  1.100e+00  1.100e+00 
y
x

 time         voltage   
             out7       
  5.0000e-09  6.863e-05 
  1.0000e-08  6.840e-05 
  1.5000e-08  6.858e-05 
  2.0000e-08  1.100e+00 
  2.5000e-08  6.853e-05 
  3.0000e-08  1.100e+00 
  3.5000e-08  1.100e+00 
  4.0000e-08  6.855e-05 
  4.5000e-08  6.857e-05 
  5.0000e-08  1.100e+00 
  5.5000e-08  6.861e-05 
  6.0000e-08  1.100e+00 
  6.5000e-08  1.100e+00 
  7.0000e-08  6.851e-05 
  7.5000e-08  6.856e-05 
  8.0000e-08  6.857e-05 
y

          ***** job concluded

   *** monte carlo  index =            7 ***

x

 time         voltage    voltage    voltage    voltage   
             in         out0       out1       out2       
  5.0000e-09  0.000e+00  1.096e+00  1.100e+00  1.100e+00 
  1.0000e-08  0.000e+00  1.239e-05  1.100e+00  3.132e-05 
  1.5000e-08  0.000e+00  1.239e-05  1.100e+00  3.126e-05 
  2.0000e-08  0.000e+00  1.233e-05  1.100e+00  3.130e-05 
  2.5000e-08  0.000e+00  1.232e-05  1.100e+00  1.100e+00 
  3.0000e-08  0.000e+00  1.232e-05  1.522e-05  3.128e-05 
  3.5000e-08  0.000e+00  1.237e-05  1.508e-05  1.100e+00 
  4.0000e-08  0.000e+00  1.096e+00  1.100e+00  3.131e-05 
  4.5000e-08  0.000e+00  1.096e+00  1.100e+00  3.129e-05 
  5.0000e-08  0.000e+00  1.240e-05  1.100e+00  3.133e-05 
  5.5000e-08  0.000e+00  1.096e+00  1.516e-05  3.115e-05 
  6.0000e-08  0.000e+00  1.234e-05  1.100e+00  3.125e-05 
  6.5000e-08  0.000e+00  1.238e-05  1.100e+00  3.124e-05 
  7.0000e-08  0.000e+00  1.096e+00  1.518e-05  3.130e-05 
  7.5000e-08  0.000e+00  1.096e+00  1.514e-05  3.127e-05 
  8.0000e-08  0.000e+00  1.096e+00  1.521e-05  3.127e-05 
y
x

 time         voltage    voltage    voltage    voltage   
             out3       out4       out5       out6       
  5.0000e-09  1.100e+00  1.644e-02  1.798e-04  2.664e-05 
  1.0000e-08  1.100e+00  1.644e-02  1.797e-04  2.668e-05 
  1.5000e-08  3.070e-05  1.644e-02  1.797e-04  2.692e-05 
  2.0000e-08  3.052e-05  1.644e-02  1.797e-04  2.675e-05 
